# HZ S RI R 50
1000000 0.05628300533333333 0.0024181830000000004 -40.94530901333333 9.531890133333333 0 0 0 0
1028741 0.058226696 0.0054048076666666665 -40.935901013333336 9.925473493333334 0 0 0 0
1057482 0.05960904 0.007763305333333334 -40.88555656 10.427441586666665 0 0 0 0
1086223 0.06080395066666666 0.009912812666666666 -40.803195626666664 10.943013413333336 0 0 0 0
1114964 0.061856497333333336 0.011782337333333332 -40.71842989333333 11.449215786666667 0 0 0 0
1143705 0.06294978 0.013739186 -40.629272453333336 11.944326186666665 0 0 0 0
1172446 0.06404793333333333 0.015449883999999999 -40.53573926666667 12.409589280000002 0 0 0 0
1201187 0.06520204266666667 0.017104392666666666 -40.43166637333333 12.860761920000002 0 0 0 0
1229928 0.06631011466666666 0.01881815 -40.36158244 13.303711360000001 0 0 0 0
1258669 0.06725166933333333 0.020181524000000003 -40.244862239999996 13.720887466666667 0 0 0 0
1287410 0.06836944533333333 0.021529943333333332 -40.14807224666666 14.130299519999998 0 0 0 0
1316151 0.0693914 0.022891625333333332 -40.04929701666666 14.515785386666666 0 0 0 0
1344892 0.07046406666666666 0.024105232666666667 -39.951431893333336 14.886813653333332 0 0 0 0
1373633 0.07130083733333333 0.02539330133333333 -39.832060373333334 15.25657216 0 0 0 0
1402374 0.07242772266666665 0.026477344 -39.730916906666664 15.603647786666668 0 0 0 0
1431115 0.07334942666666666 0.027691234666666665 -39.637876266666666 15.945147306666668 0 0 0 0
1459856 0.07425023466666665 0.028640568 -39.53418965333333 16.287440213333333 0 0 0 0
1488597 0.07520017866666667 0.02957103866666667 -39.42294357333333 16.59315776 0 0 0 0
1517338 0.07603 0.03052437133333333 -39.3343936 16.905714986666666 0 0 0 0
1546079 0.07694824533333335 0.03134637666666667 -39.222970026666665 17.210330879999997 0 0 0 0
1574820 0.07774043200000001 0.03217719333333333 -39.115674453333334 17.49957568 0 0 0 0
1603561 0.07853322666666666 0.03299460066666666 -39.021458773333336 17.787008853333333 0 0 0 0
1632302 0.07939296800000001 0.033611932000000004 -38.91045568 18.060606293333333 0 0 0 0
1661043 0.08023850933333332 0.03441276533333334 -38.81495168 18.34353962666667 0 0 0 0
1689784 0.08088608533333333 0.035022472 -38.70452010666666 18.607738666666666 0 0 0 0
1718525 0.08188208266666668 0.03561092666666666 -38.59960085333333 18.864236586666667 0 0 0 0
1747266 0.08245620533333332 0.036208392 -38.49468074666667 19.114142506666667 0 0 0 0
1776007 0.08326813866666666 0.036689788 -38.397368746666665 19.353338026666666 0 0 0 0
1804748 0.08394065066666667 0.037286731999999996 -38.28716672 19.605704959999997 0 0 0 0
1833489 0.08450477866666667 0.037695290666666666 -38.193376 19.83768704 0 0 0 0
1862230 0.085277128 0.038274392 -38.08802922666666 20.06393989333333 0 0 0 0
1890971 0.08584380533333334 0.03872943066666667 -37.991041280000005 20.27982632 0 0 0 0
1919712 0.08645089066666667 0.039036168 -37.889282773333335 20.50188302666667 0 0 0 0
1948453 0.08696849866666667 0.03942118533333334 -37.787712639999995 20.702146693333333 0 0 0 0
1977194 0.08746395733333334 0.039721049333333334 -37.696092160000006 20.917661199999994 0 0 0 0
2005935 0.08815818933333334 0.04015957333333333 -37.60164032 21.122046320000003 0 0 0 0
2034676 0.08871142933333333 0.040299343999999994 -37.506602666666666 21.31532749333333 0 0 0 0
2063417 0.089248712 0.04087127866666667 -37.41184 21.519264373333336 0 0 0 0
2092158 0.08968320533333334 0.040949188 -37.31437845333333 21.699680479999998 0 0 0 0
2120899 0.09011890133333333 0.04126294133333334 -37.233108693333335 21.884478720000004 0 0 0 0
2149640 0.09063822933333333 0.041378612 -37.122147840000004 22.079519413333337 0 0 0 0
2178381 0.09104851466666668 0.041775016 -37.02957077333333 22.257706346666666 0 0 0 0
2207122 0.09154368 0.04191695733333334 -36.93127402666667 22.43115504 0 0 0 0
2235863 0.091986832 0.042197612 -36.84750314666667 22.604417013333332 0 0 0 0
2264604 0.09235013600000001 0.042144765333333334 -36.7440256 22.78114410666667 0 0 0 0
2293345 0.092699152 0.04246286266666666 -36.644283306666665 22.947441706666666 0 0 0 0
2322086 0.093167032 0.042536776 -36.55304512 23.114820266666666 0 0 0 0
2350827 0.09361833599999998 0.04274557066666667 -36.45389376 23.27994346666667 0 0 0 0
2379568 0.09376814666666666 0.04281991599999999 -36.36019456 23.441638186666665 0 0 0 0
2408309 0.09425681333333334 0.04293924933333334 -36.263332266666666 23.602000853333337 0 0 0 0
2437050 0.09451420533333332 0.043049068 -36.16893994666667 23.751411413333336 0 0 0 0
2465791 0.09481607466666668 0.043187803999999996 -36.08139818666666 23.905408319999996 0 0 0 0
2494532 0.09518205866666667 0.04320580400000001 -35.98289152 24.06175061333333 0 0 0 0
2523273 0.09539108533333333 0.043301347999999996 -35.877398613333334 24.20131530666667 0 0 0 0
2552014 0.09589433866666668 0.043294077333333326 -35.79432192 24.344300479999998 0 0 0 0
2580755 0.09604366133333335 0.04336438533333334 -35.705335893333334 24.49047253333333 0 0 0 0
2609496 0.09631109333333333 0.04336630666666666 -35.607178239999996 24.63619712 0 0 0 0
2638237 0.09655518666666667 0.04337480666666666 -35.50877162666667 24.773605653333334 0 0 0 0
2666978 0.09679629333333334 0.043498282666666666 -35.41499456 24.919187306666664 0 0 0 0
2695719 0.09720860533333332 0.04348463733333333 -35.32122848 25.051728853333334 0 0 0 0
2724460 0.09720404 0.04355051466666667 -35.23738698666667 25.178992746666665 0 0 0 0
2753201 0.09755755199999999 0.04343837466666667 -35.13539072 25.3163648 0 0 0 0
2781942 0.09770767200000001 0.043485977333333335 -35.04707498666667 25.445737173333335 0 0 0 0
2810683 0.09791225599999999 0.04343105466666666 -34.95146037333333 25.57526186666667 0 0 0 0
2839424 0.098104576 0.04349426 -34.85257706666667 25.717022293333333 0 0 0 0
2868165 0.09833745333333332 0.04344041066666667 -34.765532906666664 25.82917461333333 0 0 0 0
2896906 0.098555632 0.043370601333333335 -34.67547658666666 25.95394304 0 0 0 0
2925647 0.09879104533333334 0.043323292000000006 -34.5824576 26.087756159999998 0 0 0 0
2954388 0.09881698133333333 0.04340073466666667 -34.48954901333333 26.20834752 0 0 0 0
2983129 0.09917019466666666 0.043330256000000004 -34.39345130666667 26.31960874666667 0 0 0 0
3011870 0.099223544 0.04332137466666667 -34.30298645333333 26.434864 0 0 0 0
3040611 0.09950158666666668 0.04313197866666666 -34.215440746666665 26.548793173333337 0 0 0 0
3069352 0.099563312 0.043246652 -34.127209173333334 26.675067733333332 0 0 0 0
3098093 0.099765544 0.04317564133333334 -34.03832032 26.789243306666663 0 0 0 0
3126834 0.09983565866666666 0.043021544 -33.94075466666667 26.888845653333334 0 0 0 0
3155575 0.100057216 0.042941733333333336 -33.85008810666667 27.01373184 0 0 0 0
3184316 0.10017470933333333 0.042915520000000006 -33.76308117333333 27.11195712 0 0 0 0
3213057 0.10022130666666666 0.042843290666666665 -33.66901077333333 27.231705173333335 0 0 0 0
3241798 0.10030784533333333 0.042729041333333335 -33.57294890666667 27.340920106666665 0 0 0 0
3270539 0.10050120533333333 0.04278973466666667 -33.485195626666666 27.452692906666663 0 0 0 0
3299280 0.10060911733333333 0.042603541333333335 -33.39440501333333 27.557864960000003 0 0 0 0
3328021 0.100742072 0.042612038666666664 -33.29472778666667 27.662488746666668 0 0 0 0
3356762 0.10085490933333334 0.042417230666666667 -33.204902080000004 27.75137834666667 0 0 0 0
3385503 0.10096832533333333 0.042450437333333334 -33.120445440000005 27.853941973333335 0 0 0 0
3414244 0.10110660266666667 0.042355885333333336 -33.034772053333334 27.966230826666667 0 0 0 0
3442985 0.10118562133333335 0.04222114266666666 -32.932062933333334 28.071833386666665 0 0 0 0
3471726 0.10135522933333334 0.042093040000000005 -32.854092906666665 28.165880746666666 0 0 0 0
3500467 0.10143613066666668 0.042083628000000005 -32.76580576 28.263651626666668 0 0 0 0
3529208 0.10141718933333332 0.04191240399999999 -32.67735162666666 28.360985386666666 0 0 0 0
3557949 0.101470536 0.041847132 -32.586498240000005 28.463716693333332 0 0 0 0
3586690 0.10171535999999999 0.041791798666666664 -32.486644586666664 28.552326400000002 0 0 0 0
3615431 0.10172010133333333 0.04155301066666667 -32.407382346666665 28.652017920000002 0 0 0 0
3644172 0.10182970133333334 0.041499456000000004 -32.31986208 28.751694933333333 0 0 0 0
3672913 0.10195762133333335 0.041473476 -32.219702346666665 28.83557162666667 0 0 0 0
3701654 0.10200272533333334 0.041337146666666665 -32.14180549333334 28.930445653333337 0 0 0 0
3730395 0.10195401333333333 0.04131318266666667 -32.04999925333333 29.015286613333334 0 0 0 0
3759136 0.10203982666666667 0.04116335866666667 -31.95522784 29.1095296 0 0 0 0
3787877 0.10209846933333333 0.041066323999999994 -31.86404389333333 29.199106773333337 0 0 0 0
3816618 0.102269408 0.04089568266666666 -31.76601962666666 29.275202986666663 0 0 0 0
3845359 0.102282528 0.040850825333333333 -31.685799733333333 29.36553472 0 0 0 0
3874100 0.10241229066666667 0.040760069333333336 -31.592156053333333 29.46505322666667 0 0 0 0
3902841 0.10288478666666667 0.04059097466666667 -31.455211626666664 29.570183893333333 0 0 0 0
3931582 0.10273304266666666 0.04057394 -31.38201717333333 29.652867413333333 0 0 0 0
3960323 0.10282894933333332 0.040410162666666666 -31.30427837333333 29.738375253333334 0 0 0 0
3989064 0.102782792 0.040319943999999996 -31.201937226666665 29.823259306666667 0 0 0 0
4017805 0.102888832 0.040160508000000004 -31.129844186666666 29.900916266666666 0 0 0 0
4046546 0.10295705866666667 0.040198382666666664 -31.026990426666664 29.977192106666664 0 0 0 0
4075287 0.10303309866666666 0.039929502666666665 -30.954167039999998 30.062704883333335 0 0 0 0
4104028 0.10310012266666667 0.039786176 -30.854210053333336 30.146249140000002 0 0 0 0
4132769 0.102950632 0.03980306666666667 -30.772239359999997 30.232713219999997 0 0 0 0
4161510 0.103338784 0.03958295466666667 -30.68577133333333 30.307802359999997 0 0 0 0
4190251 0.10310734666666667 0.039527806666666665 -30.592581426666662 30.388557906666666 0 0 0 0
4218992 0.10321049066666665 0.039441923999999996 -30.505539573333337 30.463562813333333 0 0 0 0
4247733 0.103368096 0.039320115999999995 -30.426476 30.53625822666667 0 0 0 0
4276474 0.10331689866666667 0.03921259866666667 -30.328033766666668 30.618602426666666 0 0 0 0
4305215 0.10340240266666667 0.03900908533333333 -30.244905153333335 30.689712346666663 0 0 0 0
4333956 0.10352210666666667 0.038835810666666665 -30.157097186666668 30.761044826666666 0 0 0 0
4362697 0.103512328 0.038823647999999995 -30.070931916666673 30.83792605333333 0 0 0 0
4391438 0.10353606133333333 0.038733402666666666 -29.98466005333334 30.91825802666667 0 0 0 0
4420179 0.10345160533333332 0.03861846666666666 -29.895829973333328 30.983616533333333 0 0 0 0
4448920 0.10371793333333335 0.03841241333333333 -29.80543296 31.06292168 0 0 0 0
4477661 0.10366587733333332 0.038385016 -29.709873279999996 31.121233306666664 0 0 0 0
4506402 0.10377940266666667 0.038291690666666676 -29.626827946666673 31.196568026666665 0 0 0 0
4535143 0.10376712533333332 0.038200236 -29.538343680000004 31.269718773333338 0 0 0 0
4563884 0.10377599733333333 0.03809454266666667 -29.45235562666667 31.339038240000004 0 0 0 0
4592625 0.10382422666666667 0.037951509333333334 -29.352104746666665 31.406152266666666 0 0 0 0
4621366 0.10389661066666667 0.03786257333333334 -29.262841599999998 31.474382826666666 0 0 0 0
4650107 0.10393498133333334 0.037704272000000004 -29.184917546666668 31.540056053333334 0 0 0 0
4678848 0.104033376 0.037461034666666664 -29.077868586666668 31.615985226666666 0 0 0 0
4707589 0.10410358399999999 0.037435460000000004 -29.00361152 31.67743445333333 0 0 0 0
4736330 0.10419598666666667 0.037339668 -28.90721173333333 31.736447040000005 0 0 0 0
4765071 0.10420418666666666 0.037288404 -28.824578773333336 31.80521488 0 0 0 0
4793812 0.104240184 0.03706214133333333 -28.73111637333333 31.869016480000006 0 0 0 0
4822553 0.104195736 0.03696792133333333 -28.649045760000003 31.937203413333336 0 0 0 0
4851294 0.10420033333333334 0.03695992533333334 -28.55031573333333 32.01088746666667 0 0 0 0
4880035 0.10434586666666666 0.03689307733333333 -28.465575253333334 32.07072341333333 0 0 0 0
4908776 0.10444541333333335 0.03668044 -28.367986773333328 32.133893973333336 0 0 0 0
4937517 0.10446487199999999 0.03636420533333334 -28.29179136 32.19587568 0 0 0 0
4966258 0.10447220533333333 0.036385558666666665 -28.194570453333334 32.26255813333333 0 0 0 0
4994999 0.10452761333333334 0.03632729466666667 -28.112635733333335 32.30785290666667 0 0 0 0
5023740 0.10459086666666666 0.036192744000000006 -28.018301440000002 32.37886666666667 0 0 0 0
5052481 0.10470973333333333 0.036091692 -27.930826240000002 32.44617461333333 0 0 0 0
5081222 0.10462193866666668 0.035990735999999995 -27.85035605333333 32.503698666666665 0 0 0 0
5109963 0.10470798666666666 0.035951732 -27.756512853333334 32.5627192 0 0 0 0
5138704 0.10478428266666667 0.035735464 -27.670029866666667 32.62184458666667 0 0 0 0
5167445 0.10490437599999998 0.035548703999999993 -27.589257600000003 32.67062426666667 0 0 0 0
5196186 0.10487788266666666 0.03543810133333333 -27.489904640000002 32.73417472 0 0 0 0
5224927 0.10498760533333333 0.035387178666666665 -27.413143466666664 32.79296789333333 0 0 0 0
5253668 0.104997144 0.03521080266666667 -27.32702037333334 32.859525653333336 0 0 0 0
5282409 0.10506781333333333 0.03514162266666667 -27.231850879999996 32.90606421333333 0 0 0 0
5311150 0.10513812 0.035070852 -27.151214933333332 32.96157994666667 0 0 0 0
5339891 0.10513618933333334 0.03498846666666666 -27.058315306666664 33.017931733333334 0 0 0 0
5368632 0.10525653866666666 0.034837108 -26.967198079999996 33.08311701333333 0 0 0 0
5397373 0.105250688 0.034802261333333334 -26.884565333333335 33.136833493333334 0 0 0 0
5426114 0.10522458933333334 0.03460368933333333 -26.799617706666666 33.19314090666667 0 0 0 0
5454855 0.10533530933333334 0.03438539733333334 -26.71638101333334 33.234344320000005 0 0 0 0
5483596 0.10535916000000001 0.03448931733333333 -26.625703253333338 33.293689066666666 0 0 0 0
5512337 0.10543351200000001 0.03427637333333333 -26.54545130666667 33.35507317333333 0 0 0 0
5541078 0.10545846933333332 0.034206346666666665 -26.461747626666664 33.403046186666664 0 0 0 0
5569819 0.10557621866666667 0.03406786133333333 -26.36496682666667 33.47313002666667 0 0 0 0
5598560 0.10559471466666666 0.03408386533333333 -26.28525098666667 33.51736864 0 0 0 0
5627301 0.105664056 0.033874596 -26.198239146666666 33.56365834666667 0 0 0 0
5656042 0.10570221866666667 0.03367809066666667 -26.114098346666665 33.619907733333335 0 0 0 0
5684783 0.10572367466666667 0.03366621066666667 -26.026650240000002 33.67347562666667 0 0 0 0
5713524 0.10583437333333333 0.03359194466666667 -25.937524693333334 33.72022869333333 0 0 0 0
5742265 0.105941192 0.03351897066666667 -25.85234261333333 33.763458666666665 0 0 0 0
5771006 0.10602091466666667 0.03324868533333334 -25.774362026666665 33.82255477333333 0 0 0 0
5799747 0.10604872533333333 0.03321237133333333 -25.681663360000005 33.87792341333333 0 0 0 0
5828488 0.10615286133333333 0.03309064733333333 -25.581168426666668 33.91980256 0 0 0 0
5857229 0.10611721333333334 0.032931987333333336 -25.50942570666667 33.97557493333333 0 0 0 0
5885970 0.10630874666666668 0.03283561533333334 -25.41749952 33.998986773333336 0 0 0 0
5914711 0.106231664 0.03256768066666666 -25.324934399999997 34.053304106666666 0 0 0 0
5943452 0.10639847200000001 0.032633294666666667 -25.24451093333333 34.106264960000004 0 0 0 0
5972193 0.10639154133333334 0.03253664733333333 -25.151679466666668 34.138902826666666 0 0 0 0
6000934 0.106501 0.03245187533333333 -25.06826869333333 34.19334016 0 0 0 0
6029675 0.10654049333333333 0.03228177266666667 -24.979436373333336 34.23749290666667 0 0 0 0
6058416 0.10656521866666667 0.032277516666666665 -24.898136426666664 34.28624 0 0 0 0
6087157 0.10670532799999999 0.032041127333333336 -24.811349653333338 34.32098634666667 0 0 0 0
6115898 0.10683030399999999 0.031982955333333334 -24.72836490666667 34.36889333333333 0 0 0 0
6144639 0.106792288 0.031891348666666666 -24.635779093333333 34.41843818666667 0 0 0 0
6173380 0.10684717866666667 0.031816361333333334 -24.547379093333333 34.457743146666665 0 0 0 0
6202121 0.10688161866666668 0.031608854666666665 -24.45997792 34.51009674666666 0 0 0 0
6230862 0.10697961866666666 0.03153548466666667 -24.37707178666667 34.545582933333336 0 0 0 0
6259603 0.10719618400000001 0.031548708 -24.293006293333335 34.585392533333334 0 0 0 0
6288344 0.10702871200000001 0.03137136133333334 -24.213451626666664 34.64060458666667 0 0 0 0
6317085 0.10726527466666667 0.031281926666666675 -24.12968074666667 34.683699626666666 0 0 0 0
6345826 0.10733061866666667 0.031147710666666665 -24.032803413333333 34.71701536 0 0 0 0
6374567 0.10749452 0.031096377999999997 -23.945902186666665 34.752333973333336 0 0 0 0
6403308 0.10760020799999999 0.030906340666666667 -23.871579840000003 34.81132746666667 0 0 0 0
6432049 0.10750490133333333 0.030829853333333334 -23.790027306666666 34.8319824 0 0 0 0
6460790 0.10761960799999999 0.030685372666666665 -23.702107199999997 34.887157226666666 0 0 0 0
6489531 0.10770337066666667 0.03060252466666667 -23.61754496 34.927120959999996 0 0 0 0
6518272 0.107900552 0.03050351 -23.53159584 34.971653653333334 0 0 0 0
6547013 0.10783174133333333 0.030411228 -23.44183530666667 34.99401568 0 0 0 0
6575754 0.10805092533333333 0.030266514666666664 -23.356800853333333 35.03994784 0 0 0 0
6604495 0.10812223733333333 0.030190567333333335 -23.27475072 35.07865109333333 0 0 0 0
6633236 0.10824480266666665 0.029971190666666665 -23.1761264 35.12245258666667 0 0 0 0
6661977 0.10830558133333333 0.029921043999999997 -23.092902399999996 35.1551088 0 0 0 0
6690718 0.10837254666666667 0.029811161333333336 -23.013234026666666 35.18153504 0 0 0 0
6719459 0.108520424 0.02971268466666667 -22.91855968 35.21151701333333 0 0 0 0
6748200 0.10854506933333334 0.029581124666666667 -22.842051199999997 35.24672426666667 0 0 0 0
6776941 0.10871923733333333 0.029562531333333336 -22.753110826666664 35.29014816 0 0 0 0
6805682 0.10893315466666666 0.029420845333333334 -22.628581493333332 35.33356352 0 0 0 0
6834423 0.10916440533333333 0.029225404 -22.53487509333333 35.36820970666667 0 0 0 0
6863164 0.10917350933333335 0.029283968000000004 -22.465528640000002 35.41011648 0 0 0 0
6891905 0.10939582133333332 0.029115046000000002 -22.364420053333337 35.44667157333334 0 0 0 0
6920646 0.10934646399999999 0.028975884666666663 -22.283374506666664 35.48415808 0 0 0 0
6949387 0.10945908266666667 0.028857757333333334 -22.206494826666663 35.5235584 0 0 0 0
6978128 0.10946123466666667 0.028690022666666665 -22.128950773333337 35.55148181333333 0 0 0 0
7006869 0.10971971733333334 0.028542686 -22.043743093333333 35.587929173333336 0 0 0 0
7035610 0.10979591466666666 0.028501291333333335 -21.950953813333335 35.62289557333334 0 0 0 0
7064351 0.10986382666666666 0.028309644 -21.867702826666665 35.65937194666667 0 0 0 0
7093092 0.10999508000000001 0.028254491333333336 -21.78085488 35.696643413333334 0 0 0 0
7121833 0.11000446933333334 0.028173359999999998 -21.70437888 35.742486400000004 0 0 0 0
7150574 0.11023493866666667 0.027915546 -21.62143306666667 35.758142506666665 0 0 0 0
7179315 0.11034645866666666 0.027844497333333332 -21.533679146666667 35.79750933333334 0 0 0 0
7208056 0.11044932533333333 0.02783366 -21.455047146666665 35.82368533333334 0 0 0 0
7236797 0.11054586666666666 0.02775654666666667 -21.371960639999998 35.86512256 0 0 0 0
7265538 0.110611656 0.027554083999999996 -21.2905248 35.89461781333333 0 0 0 0
7294279 0.110775416 0.027511418666666666 -21.212866293333335 35.915467946666666 0 0 0 0
7323020 0.11092507200000001 0.027372978000000003 -21.117069733333334 35.95164074666667 0 0 0 0
7351761 0.11104553066666667 0.027221974666666666 -21.03848058666667 35.97784213333333 0 0 0 0
7380502 0.110994032 0.02717122 -20.956578266666664 36.01552896 0 0 0 0
