# HZ S RI R 50
1000000 0.05628300533333333 0.0024181830000000004
1028741 0.058226696 0.0054048076666666665
1057482 0.05960904 0.007763305333333334
1086223 0.06080395066666666 0.009912812666666666
1114964 0.061856497333333336 0.011782337333333332
1143705 0.06294978 0.013739186
1172446 0.06404793333333333 0.015449883999999999
1201187 0.06520204266666667 0.017104392666666666
1229928 0.06631011466666666 0.01881815
1258669 0.06725166933333333 0.020181524000000003
1287410 0.06836944533333333 0.021529943333333332
1316151 0.0693914 0.022891625333333332
1344892 0.07046406666666666 0.024105232666666667
1373633 0.07130083733333333 0.02539330133333333
1402374 0.07242772266666665 0.026477344
1431115 0.07334942666666666 0.027691234666666665
1459856 0.07425023466666665 0.028640568
1488597 0.07520017866666667 0.02957103866666667
1517338 0.07603 0.03052437133333333
1546079 0.07694824533333335 0.03134637666666667
1574820 0.07774043200000001 0.03217719333333333
1603561 0.07853322666666666 0.03299460066666666
1632302 0.07939296800000001 0.033611932000000004
1661043 0.08023850933333332 0.03441276533333334
1689784 0.08088608533333333 0.035022472
1718525 0.08188208266666668 0.03561092666666666
1747266 0.08245620533333332 0.036208392
1776007 0.08326813866666666 0.036689788
1804748 0.08394065066666667 0.037286731999999996
1833489 0.08450477866666667 0.037695290666666666
1862230 0.085277128 0.038274392
1890971 0.08584380533333334 0.03872943066666667
1919712 0.08645089066666667 0.039036168
1948453 0.08696849866666667 0.03942118533333334
1977194 0.08746395733333334 0.039721049333333334
2005935 0.08815818933333334 0.04015957333333333
2034676 0.08871142933333333 0.040299343999999994
2063417 0.089248712 0.04087127866666667
2092158 0.08968320533333334 0.040949188
2120899 0.09011890133333333 0.04126294133333334
2149640 0.09063822933333333 0.041378612
2178381 0.09104851466666668 0.041775016
2207122 0.09154368 0.04191695733333334
2235863 0.091986832 0.042197612
2264604 0.09235013600000001 0.042144765333333334
2293345 0.092699152 0.04246286266666666
2322086 0.093167032 0.042536776
2350827 0.09361833599999998 0.04274557066666667
2379568 0.09376814666666666 0.04281991599999999
2408309 0.09425681333333334 0.04293924933333334
2437050 0.09451420533333332 0.043049068
2465791 0.09481607466666668 0.043187803999999996
2494532 0.09518205866666667 0.04320580400000001
2523273 0.09539108533333333 0.043301347999999996
2552014 0.09589433866666668 0.043294077333333326
2580755 0.09604366133333335 0.04336438533333334
2609496 0.09631109333333333 0.04336630666666666
2638237 0.09655518666666667 0.04337480666666666
2666978 0.09679629333333334 0.043498282666666666
2695719 0.09720860533333332 0.04348463733333333
2724460 0.09720404 0.04355051466666667
2753201 0.09755755199999999 0.04343837466666667
2781942 0.09770767200000001 0.043485977333333335
2810683 0.09791225599999999 0.04343105466666666
2839424 0.098104576 0.04349426
2868165 0.09833745333333332 0.04344041066666667
2896906 0.098555632 0.043370601333333335
2925647 0.09879104533333334 0.043323292000000006
2954388 0.09881698133333333 0.04340073466666667
2983129 0.09917019466666666 0.043330256000000004
3011870 0.099223544 0.04332137466666667
3040611 0.09950158666666668 0.04313197866666666
3069352 0.099563312 0.043246652
3098093 0.099765544 0.04317564133333334
3126834 0.09983565866666666 0.043021544
3155575 0.100057216 0.042941733333333336
3184316 0.10017470933333333 0.042915520000000006
3213057 0.10022130666666666 0.042843290666666665
3241798 0.10030784533333333 0.042729041333333335
3270539 0.10050120533333333 0.04278973466666667
3299280 0.10060911733333333 0.042603541333333335
3328021 0.100742072 0.042612038666666664
3356762 0.10085490933333334 0.042417230666666667
3385503 0.10096832533333333 0.042450437333333334
3414244 0.10110660266666667 0.042355885333333336
3442985 0.10118562133333335 0.04222114266666666
3471726 0.10135522933333334 0.042093040000000005
3500467 0.10143613066666668 0.042083628000000005
3529208 0.10141718933333332 0.04191240399999999
3557949 0.101470536 0.041847132
3586690 0.10171535999999999 0.041791798666666664
3615431 0.10172010133333333 0.04155301066666667
3644172 0.10182970133333334 0.041499456000000004
3672913 0.10195762133333335 0.041473476
3701654 0.10200272533333334 0.041337146666666665
3730395 0.10195401333333333 0.04131318266666667
3759136 0.10203982666666667 0.04116335866666667
3787877 0.10209846933333333 0.041066323999999994
3816618 0.102269408 0.04089568266666666
3845359 0.102282528 0.040850825333333333
3874100 0.10241229066666667 0.040760069333333336
3902841 0.10288478666666667 0.04059097466666667
3931582 0.10273304266666666 0.04057394
3960323 0.10282894933333332 0.040410162666666666
3989064 0.102782792 0.040319943999999996
4017805 0.102888832 0.040160508000000004
4046546 0.10295705866666667 0.040198382666666664
4075287 0.10303309866666666 0.039929502666666665
4104028 0.10310012266666667 0.039786176
4132769 0.102950632 0.03980306666666667
4161510 0.103338784 0.03958295466666667
4190251 0.10310734666666667 0.039527806666666665
4218992 0.10321049066666665 0.039441923999999996
4247733 0.103368096 0.039320115999999995
4276474 0.10331689866666667 0.03921259866666667
4305215 0.10340240266666667 0.03900908533333333
4333956 0.10352210666666667 0.038835810666666665
4362697 0.103512328 0.038823647999999995
4391438 0.10353606133333333 0.038733402666666666
4420179 0.10345160533333332 0.03861846666666666
4448920 0.10371793333333335 0.03841241333333333
4477661 0.10366587733333332 0.038385016
4506402 0.10377940266666667 0.038291690666666676
4535143 0.10376712533333332 0.038200236
4563884 0.10377599733333333 0.03809454266666667
4592625 0.10382422666666667 0.037951509333333334
4621366 0.10389661066666667 0.03786257333333334
4650107 0.10393498133333334 0.037704272000000004
4678848 0.104033376 0.037461034666666664
4707589 0.10410358399999999 0.037435460000000004
4736330 0.10419598666666667 0.037339668
4765071 0.10420418666666666 0.037288404
4793812 0.104240184 0.03706214133333333
4822553 0.104195736 0.03696792133333333
4851294 0.10420033333333334 0.03695992533333334
4880035 0.10434586666666666 0.03689307733333333
4908776 0.10444541333333335 0.03668044
4937517 0.10446487199999999 0.03636420533333334
4966258 0.10447220533333333 0.036385558666666665
4994999 0.10452761333333334 0.03632729466666667
5023740 0.10459086666666666 0.036192744000000006
5052481 0.10470973333333333 0.036091692
5081222 0.10462193866666668 0.035990735999999995
5109963 0.10470798666666666 0.035951732
5138704 0.10478428266666667 0.035735464
5167445 0.10490437599999998 0.035548703999999993
5196186 0.10487788266666666 0.03543810133333333
5224927 0.10498760533333333 0.035387178666666665
5253668 0.104997144 0.03521080266666667
5282409 0.10506781333333333 0.03514162266666667
5311150 0.10513812 0.035070852
5339891 0.10513618933333334 0.03498846666666666
5368632 0.10525653866666666 0.034837108
5397373 0.105250688 0.034802261333333334
5426114 0.10522458933333334 0.03460368933333333
5454855 0.10533530933333334 0.03438539733333334
5483596 0.10535916000000001 0.03448931733333333
5512337 0.10543351200000001 0.03427637333333333
5541078 0.10545846933333332 0.034206346666666665
5569819 0.10557621866666667 0.03406786133333333
5598560 0.10559471466666666 0.03408386533333333
5627301 0.105664056 0.033874596
5656042 0.10570221866666667 0.03367809066666667
5684783 0.10572367466666667 0.03366621066666667
5713524 0.10583437333333333 0.03359194466666667
5742265 0.105941192 0.03351897066666667
5771006 0.10602091466666667 0.03324868533333334
5799747 0.10604872533333333 0.03321237133333333
5828488 0.10615286133333333 0.03309064733333333
5857229 0.10611721333333334 0.032931987333333336
5885970 0.10630874666666668 0.03283561533333334
5914711 0.106231664 0.03256768066666666
5943452 0.10639847200000001 0.032633294666666667
5972193 0.10639154133333334 0.03253664733333333
6000934 0.106501 0.03245187533333333
6029675 0.10654049333333333 0.03228177266666667
6058416 0.10656521866666667 0.032277516666666665
6087157 0.10670532799999999 0.032041127333333336
6115898 0.10683030399999999 0.031982955333333334
6144639 0.106792288 0.031891348666666666
6173380 0.10684717866666667 0.031816361333333334
6202121 0.10688161866666668 0.031608854666666665
6230862 0.10697961866666666 0.03153548466666667
6259603 0.10719618400000001 0.031548708
6288344 0.10702871200000001 0.03137136133333334
6317085 0.10726527466666667 0.031281926666666675
6345826 0.10733061866666667 0.031147710666666665
6374567 0.10749452 0.031096377999999997
6403308 0.10760020799999999 0.030906340666666667
6432049 0.10750490133333333 0.030829853333333334
6460790 0.10761960799999999 0.030685372666666665
6489531 0.10770337066666667 0.03060252466666667
6518272 0.107900552 0.03050351
6547013 0.10783174133333333 0.030411228
6575754 0.10805092533333333 0.030266514666666664
6604495 0.10812223733333333 0.030190567333333335
6633236 0.10824480266666665 0.029971190666666665
6661977 0.10830558133333333 0.029921043999999997
6690718 0.10837254666666667 0.029811161333333336
6719459 0.108520424 0.02971268466666667
6748200 0.10854506933333334 0.029581124666666667
6776941 0.10871923733333333 0.029562531333333336
6805682 0.10893315466666666 0.029420845333333334
6834423 0.10916440533333333 0.029225404
6863164 0.10917350933333335 0.029283968000000004
6891905 0.10939582133333332 0.029115046000000002
6920646 0.10934646399999999 0.028975884666666663
6949387 0.10945908266666667 0.028857757333333334
6978128 0.10946123466666667 0.028690022666666665
7006869 0.10971971733333334 0.028542686
7035610 0.10979591466666666 0.028501291333333335
7064351 0.10986382666666666 0.028309644
7093092 0.10999508000000001 0.028254491333333336
7121833 0.11000446933333334 0.028173359999999998
7150574 0.11023493866666667 0.027915546
7179315 0.11034645866666666 0.027844497333333332
7208056 0.11044932533333333 0.02783366
7236797 0.11054586666666666 0.02775654666666667
7265538 0.110611656 0.027554083999999996
7294279 0.110775416 0.027511418666666666
7323020 0.11092507200000001 0.027372978000000003
7351761 0.11104553066666667 0.027221974666666666
7380502 0.110994032 0.02717122
7409243 0.11125231466666667 0.027120645999999998
7437984 0.11137098933333334 0.026873636000000003
7466725 0.111589168 0.02673641666666667
7495466 0.11165186133333332 0.026713187333333333
7524207 0.11168336266666667 0.026532510666666665
7552948 0.11191060266666668 0.026306202666666667
7581689 0.11196303466666667 0.026324985999999998
7610430 0.11211084533333333 0.026090552000000003
7639171 0.11230203999999999 0.026025509333333332
7667912 0.11238859733333333 0.026098530666666665
7696653 0.11250131466666667 0.025848752000000003
7725394 0.11259665333333335 0.02567341466666667
7754135 0.11268367466666666 0.025526870666666663
7782876 0.11286894133333332 0.025339738666666667
7811617 0.113101224 0.025279406666666667
7840358 0.11311738933333333 0.025244758000000003
7869099 0.11321914933333332 0.025047558666666664
7897840 0.11342449066666667 0.025007914000000003
7926581 0.11351436799999999 0.024732387999999998
7955322 0.11365917866666668 0.024757669333333333
7984063 0.11376151466666667 0.024653096000000003
8012804 0.11390926666666666 0.024370289333333333
8041545 0.11412465066666667 0.024316986666666665
8070286 0.114113144 0.024153269333333335
8099027 0.11420732266666667 0.024087827333333336
8127768 0.114458736 0.024067353333333333
8156509 0.114631744 0.023920408
8185250 0.11472249066666666 0.023777626
8213991 0.114909472 0.02367633133333333
8242732 0.115030784 0.023502669333333333
8271473 0.11524896266666666 0.023459735333333332
8300214 0.11535680533333333 0.023212469333333333
8328955 0.11534661333333333 0.02306737
8357696 0.115568216 0.023022548666666667
8386437 0.11566737599999999 0.022969776
8415178 0.11579803733333333 0.022841938666666662
8443919 0.11598295200000001 0.022808452000000003
8472660 0.11619170933333334 0.022504542000000002
8501401 0.11631765066666666 0.022445901333333334
8530142 0.116415288 0.022324512
8558883 0.11647862399999999 0.02212637133333333
8587624 0.11667533066666667 0.022039002000000002
8616365 0.11683234399999999 0.02192996733333333
8645106 0.11708684000000001 0.02190967933333333
8673847 0.116993208 0.021728283333333334
8702588 0.11732562933333335 0.021673581333333334
8731329 0.11733964266666667 0.021598482
8760070 0.11749738933333333 0.021389354666666666
8788811 0.11766208266666667 0.021211358000000003
8817552 0.11785560266666666 0.021277813999999996
8846293 0.118050256 0.021088592
8875034 0.11808727200000001 0.020810572666666666
8903775 0.11825857066666666 0.020815564666666665
8932516 0.118437584 0.020698394
8961257 0.11864476 0.020665766000000002
8989998 0.11887091999999999 0.020508590666666666
9018739 0.11901523733333334 0.020283268666666666
9047480 0.11901366933333334 0.020287869333333333
9076221 0.119260128 0.020073583333333336
9104962 0.11930978933333332 0.020099873333333334
9133703 0.11967484533333334 0.019893029333333336
9162444 0.11979427733333332 0.019721454
9191185 0.11985832266666667 0.019709735333333332
9219926 0.120026248 0.019644951333333334
9248667 0.12021260266666667 0.019372048000000003
9277408 0.12034210133333333 0.019373936666666664
9306149 0.12050798666666666 0.019164137333333334
9334890 0.12059225866666667 0.019114871333333335
9363631 0.12090384266666666 0.018949671333333334
9392372 0.120985456 0.018862654000000003
9421113 0.12123128000000001 0.01878271333333333
9449854 0.12137157333333333 0.018587224
9478595 0.121426608 0.018517632000000003
9507336 0.12163961599999999 0.01827734266666667
9536077 0.121814088 0.018310202
9564818 0.12197584533333333 0.018297478000000002
9593559 0.12218921866666667 0.01808509933333333
9622300 0.12234137866666667 0.01794552
9651041 0.12244528533333332 0.017823986
9679782 0.12260032266666666 0.017640414
9708523 0.12295838933333332 0.017453655999999998
9737264 0.12311657599999999 0.017304298666666666
9766005 0.12338678400000001 0.01722799733333333
9794746 0.12349627466666667 0.017078154666666664
9823487 0.12367437333333332 0.016977912666666668
9852228 0.123825744 0.01680705533333333
9880969 0.12408961866666668 0.016785770000000002
9909710 0.124223504 0.016806082
9938451 0.12435265066666668 0.01655043
9967192 0.12460162666666667 0.016397844666666665
9995933 0.12473755999999998 0.01618293733333333
10024674 0.124906568 0.016164829333333335
10053415 0.12508585866666666 0.016201721999999998
10082156 0.12525118666666665 0.015934648666666665
10110897 0.12538237866666666 0.01585687666666667
10139638 0.12562950399999998 0.015749682666666667
10168379 0.125772472 0.015577592666666668
10197120 0.12589369066666667 0.015386538666666666
10225861 0.12617484266666665 0.015420646000000001
10254602 0.12635684 0.015238854666666668
10283343 0.12647870666666663 0.01506637
10312084 0.126613472 0.01497673
10340825 0.12685433599999998 0.014847165333333334
10369566 0.12706694133333332 0.014667611999999998
10398307 0.12717216 0.014655167333333335
10427048 0.12736697333333336 0.014496874666666666
10455789 0.12746989066666667 0.014368987333333333
10484530 0.12764638666666667 0.014261446000000002
10513271 0.12772848266666667 0.014194159333333333
10542012 0.12801983466666667 0.013964595333333335
10570753 0.12832882666666667 0.013787466
10599494 0.12840231466666666 0.013708786
10628235 0.128532016 0.013610142666666667
10656976 0.12875014133333332 0.013518298666666666
10685717 0.128947656 0.013271993333333334
10714458 0.1291759573333333 0.013179393333333332
10743199 0.12935230133333334 0.013074719333333333
10771940 0.129504168 0.012862446
10800681 0.12976280533333331 0.012775829333333334
10829422 0.129777048 0.012716282666666667
10858163 0.13007216266666669 0.012542514666666666
10886904 0.130234352 0.01239764
10915645 0.13042476266666667 0.012371993333333333
10944386 0.13072684 0.012216447333333333
10973127 0.130860944 0.011936450666666668
11001868 0.13102966933333335 0.011898598000000002
11030609 0.13108341600000004 0.011765748666666668
11059350 0.13130080266666666 0.011586925333333333
11088091 0.13152964266666667 0.011416380666666665
11116832 0.13176685333333335 0.011317951333333335
11145573 0.132018424 0.011148966666666668
11174314 0.13206530133333333 0.011120014666666666
11203055 0.13235388533333334 0.010879618
11231796 0.13254779199999997 0.010777162
11260537 0.132700336 0.010684571333333332
11289278 0.132874584 0.01045375
11318019 0.13321792 0.010404752666666666
11346760 0.13331900266666666 0.010317218666666668
11375501 0.13348930933333333 0.010032965999999999
11404242 0.13380542399999998 0.010028670666666666
11432983 0.13394510133333334 0.009820404
11461724 0.13401169866666665 0.009773513999999999
11490465 0.134217304 0.009573564
11519206 0.13434866666666667 0.00944208
11547947 0.13459323733333337 0.009255583333333333
11576688 0.13482693866666665 0.009049020666666666
11605429 0.135016544 0.009032524666666666
11634170 0.135357712 0.008803226
11662911 0.13540165333333332 0.008675142666666665
11691652 0.13564435733333335 0.008539394666666667
11720393 0.13582878933333334 0.008332975999999999
11749134 0.136021008 0.008170225333333335
11777875 0.13614440533333336 0.008113057666666666
11806616 0.136435744 0.007979747333333334
11835357 0.13662938133333333 0.007825997
11864098 0.13677430933333334 0.007705172999999999
11892839 0.13705356266666668 0.007522206333333333
11921580 0.13720602666666668 0.007400986333333334
11950321 0.13738181866666666 0.007220120333333333
11979062 0.13753709866666666 0.0071656206666666665
12007803 0.13774661333333335 0.007001299
12036544 0.137984672 0.006754522999999999
12065285 0.13811675199999998 0.006691921333333334
12094026 0.13848072533333333 0.006509995333333333
12122767 0.13861381333333334 0.006430193000000001
12151508 0.138852096 0.006170461999999999
12180249 0.139005296 0.006050159666666667
12208990 0.13926659733333333 0.005822046
12237731 0.1394050453333333 0.005671348666666666
12266472 0.13962813866666665 0.005550647999999999
12295213 0.139797536 0.005378799
12323954 0.13992248 0.005236055666666666
12352695 0.140247152 0.005023537666666667
12381436 0.14041179733333334 0.004939289
12410177 0.14058458133333332 0.004843880333333334
12438918 0.140890976 0.004558077
12467659 0.140998464 0.004525932
12496400 0.14114957333333333 0.0043412523333333335
12525141 0.14146548266666667 0.004041421
12553882 0.14161933866666668 0.004046773666666666
12582623 0.14189559466666668 0.0037821653333333337
12611364 0.142218704 0.003597122666666667
12640105 0.14242672533333334 0.0034542846666666665
12668846 0.142584432 0.0033443586666666667
12697587 0.14282065600000002 0.003228499666666667
12726328 0.14296089066666665 0.0029232716666666666
12755069 0.14318894933333334 0.0028375156666666664
12783810 0.143336 0.002778352
12812551 0.1437409013333333 0.0023824166666666664
12841292 0.14376811733333336 0.0022734716666666667
12870033 0.14392106666666668 0.0021958016666666666
12898774 0.14412938133333333 0.0019569543333333335
12927515 0.14432988266666666 0.0019347556666666668
12956256 0.14462573333333337 0.0016938193333333332
12984997 0.14483441066666666 0.0015417176666666667
13013738 0.14504555733333335 0.0013251353333333332
13042479 0.14524632 0.0011963423333333334
13071220 0.14542518933333334 0.0010113493333333333
13099961 0.14557556266666669 0.0008937166666666666
13128702 0.14586866666666665 0.0006645403333333334
13157443 0.14611520533333333 0.0004466333333333333
13186184 0.14635498133333333 0.0003258596666666667
13214925 0.14650818133333335 0.000135083
13243666 0.14674586666666667 -7.288833333333333e-05
13272407 0.14690647999999998 -0.00018775833333333335
13301148 0.14702578666666666 -0.0003402113333333333
13329889 0.14730001066666665 -0.000476214
13358630 0.14752116266666668 -0.0007235346666666667
13387371 0.14776363733333334 -0.000793568
13416112 0.14795272 -0.0010530573333333334
13444853 0.148197616 -0.001183059
13473594 0.14828094933333333 -0.001363719
13502335 0.14863185066666665 -0.0015864089999999998
13531076 0.148876832 -0.001718499
13559817 0.149024704 -0.0018594629999999998
13588558 0.14923144533333332 -0.002075465
